
**** 12/16/22 00:37:52 ******* PSpice 17.4.0 (Nov 2018) ******* ID# 0 ********

 ** Profile: "SCHEMATIC1-lab5"  [ D:\MDDT\LAB5\Lab5-PSpiceFiles\SCHEMATIC1\lab5.sim ] 


 ****     CIRCUIT DESCRIPTION


******************************************************************************




** Creating circuit file "lab5.cir" 
** WARNING: THIS AUTOMATICALLY GENERATED FILE MAY BE OVERWRITTEN BY SUBSEQUENT SIMULATIONS

*Libraries: 
* Profile Libraries :
* Local Libraries :
* From [PSPICE NETLIST] section of C:\cds_spb_home\cdssetup\OrCAD_PSpiceTIPSpice_Install\17.4.0\PSpice.ini file:
.lib "nom_pspti.lib" 
.lib "nom.lib" 

*Analysis directives: 
.OPTIONS ADVCONV
.OPTIONS FILEMODELSEARCH
.PROBE64 V(alias(*)) I(alias(*)) W(alias(*)) D(alias(*)) NOISE(alias(*)) 
.INC "..\SCHEMATIC1.net" 



**** INCLUDING SCHEMATIC1.net ****
* source LAB5
R_R1         0 N00484  680k TC=0,0 
R_R2         N00808 N00157  2k TC=0,0 
R_R3         0 N00812  1k TC=0,0 
V_V1         N00157 0 12Vdc
M_M1         N00808 N00484 N00812 N00812 MbreakND           

**** RESUMING lab5.cir ****
.END

**** 12/16/22 00:37:52 ******* PSpice 17.4.0 (Nov 2018) ******* ID# 0 ********

 ** Profile: "SCHEMATIC1-lab5"  [ D:\MDDT\LAB5\Lab5-PSpiceFiles\SCHEMATIC1\lab5.sim ] 


 ****     MOSFET MODEL PARAMETERS


******************************************************************************




               MbreakND        
               NMOS            
       LEVEL    1            
           L  100.000000E-06 
           W  100.000000E-06 
         VTO   -4            
          KP   20.000000E-06 
       GAMMA    0            
         PHI     .6          
      LAMBDA    0            
          IS   10.000000E-15 
          JS    0            
          PB     .8          
        PBSW     .8          
          CJ    0            
        CJSW    0            
        CGSO    0            
        CGDO    0            
        CGBO    0            
         TOX    0            
          XJ    0            
       UCRIT   10.000000E+03 
      DIOMOD    1            
         VFB    0            
        LETA    0            
        WETA    0            
          U0    0            
        TEMP    0            
         VDD    5            
       XPART    0            


**** 12/16/22 00:37:52 ******* PSpice 17.4.0 (Nov 2018) ******* ID# 0 ********

 ** Profile: "SCHEMATIC1-lab5"  [ D:\MDDT\LAB5\Lab5-PSpiceFiles\SCHEMATIC1\lab5.sim ] 


 ****     SMALL SIGNAL BIAS SOLUTION       TEMPERATURE =   27.000 DEG C


******************************************************************************



 NODE   VOLTAGE     NODE   VOLTAGE     NODE   VOLTAGE     NODE   VOLTAGE


(N00157)   12.0000 (N00484)    0.0000 (N00808)   11.7030 (N00812)     .1484 




    VOLTAGE SOURCE CURRENTS
    NAME         CURRENT

    V_V1        -1.484E-04

    TOTAL POWER DISSIPATION   1.78E-03  WATTS



          JOB CONCLUDED

**** 12/16/22 00:37:52 ******* PSpice 17.4.0 (Nov 2018) ******* ID# 0 ********

 ** Profile: "SCHEMATIC1-lab5"  [ D:\MDDT\LAB5\Lab5-PSpiceFiles\SCHEMATIC1\lab5.sim ] 


 ****     JOB STATISTICS SUMMARY


******************************************************************************



  License check-out time            =       36.42
  Total job time (using Solver 1)   =         .27
