
**** 12/15/22 23:34:03 ******* PSpice 17.4.0 (Nov 2018) ******* ID# 0 ********

 ** Profile: "SCHEMATIC1-lab5"  [ D:\MDDT\LAB5\Lab5-PSpiceFiles\SCHEMATIC1\lab5.sim ] 


 ****     CIRCUIT DESCRIPTION


******************************************************************************




** Creating circuit file "lab5.cir" 
** WARNING: THIS AUTOMATICALLY GENERATED FILE MAY BE OVERWRITTEN BY SUBSEQUENT SIMULATIONS

*Libraries: 
* Profile Libraries :
* Local Libraries :
* From [PSPICE NETLIST] section of C:\cds_spb_home\cdssetup\OrCAD_PSpiceTIPSpice_Install\17.4.0\PSpice.ini file:
.lib "nom_pspti.lib" 
.lib "nom.lib" 

*Analysis directives: 
.OPTIONS ADVCONV
.OPTIONS FILEMODELSEARCH
.PROBE64 V(alias(*)) I(alias(*)) W(alias(*)) D(alias(*)) NOISE(alias(*)) 
.INC "..\SCHEMATIC1.net" 



**** INCLUDING SCHEMATIC1.net ****
* source LAB5
R_R1         0 N00179  680k TC=0,0 
R_R2         N00175 N00157  2k TC=0,0 
R_R3         0 N00171  1k TC=0,0 
J_J1         N00175 N00179 N00171 JbreakN 
V_V1         N00157 0 12Vdc

**** RESUMING lab5.cir ****
.END

WARNING(ORPSIM-15223): Library file C:\cds_spb_home\cdssetup\pspTILibDir\nom_pspti.lib has changed since index file nom_pspti.ind was created.

WARNING(ORPSIM-15227): The timestamp changed from Sat Oct 29 15:15:37 2022 to Thu Dec 15 23:29:00 2022.

INFO(ORPSIM-15422): Making new index file nom_pspti.ind for library file nom_pspti.lib.

Index has 110393 entries from 5131 file(s).

**** 12/15/22 23:34:03 ******* PSpice 17.4.0 (Nov 2018) ******* ID# 0 ********

 ** Profile: "SCHEMATIC1-lab5"  [ D:\MDDT\LAB5\Lab5-PSpiceFiles\SCHEMATIC1\lab5.sim ] 


 ****     Junction FET MODEL PARAMETERS


******************************************************************************




               JbreakN         
               NJF             
         VTO   -2            
        BETA  100.000000E-06 


**** 12/15/22 23:34:03 ******* PSpice 17.4.0 (Nov 2018) ******* ID# 0 ********

 ** Profile: "SCHEMATIC1-lab5"  [ D:\MDDT\LAB5\Lab5-PSpiceFiles\SCHEMATIC1\lab5.sim ] 


 ****     SMALL SIGNAL BIAS SOLUTION       TEMPERATURE =   27.000 DEG C


******************************************************************************



 NODE   VOLTAGE     NODE   VOLTAGE     NODE   VOLTAGE     NODE   VOLTAGE


(N00157)   12.0000 (N00171)     .2918 (N00175)   11.4160 (N00179) 7.975E-06 




    VOLTAGE SOURCE CURRENTS
    NAME         CURRENT

    V_V1        -2.918E-04

    TOTAL POWER DISSIPATION   3.50E-03  WATTS



          JOB CONCLUDED

**** 12/15/22 23:34:03 ******* PSpice 17.4.0 (Nov 2018) ******* ID# 0 ********

 ** Profile: "SCHEMATIC1-lab5"  [ D:\MDDT\LAB5\Lab5-PSpiceFiles\SCHEMATIC1\lab5.sim ] 


 ****     JOB STATISTICS SUMMARY


******************************************************************************



  Total job time (using Solver 1)   =       36.11
