
**** 12/15/22 23:46:59 ******* PSpice 17.4.0 (Nov 2018) ******* ID# 0 ********

 ** Profile: "SCHEMATIC1-lab5"  [ D:\MDDT\LAB5\Lab5-PSpiceFiles\SCHEMATIC1\lab5.sim ] 


 ****     CIRCUIT DESCRIPTION


******************************************************************************




** Creating circuit file "lab5.cir" 
** WARNING: THIS AUTOMATICALLY GENERATED FILE MAY BE OVERWRITTEN BY SUBSEQUENT SIMULATIONS

*Libraries: 
* Profile Libraries :
* Local Libraries :
* From [PSPICE NETLIST] section of C:\cds_spb_home\cdssetup\OrCAD_PSpiceTIPSpice_Install\17.4.0\PSpice.ini file:
.lib "nom_pspti.lib" 
.lib "nom.lib" 

*Analysis directives: 
.OPTIONS ADVCONV
.OPTIONS FILEMODELSEARCH
.PROBE64 V(alias(*)) I(alias(*)) W(alias(*)) D(alias(*)) NOISE(alias(*)) 
.INC "..\SCHEMATIC1.net" 



**** INCLUDING SCHEMATIC1.net ****
* source LAB5
R_R1         0 N00406  2200k TC=0,0 
R_R2         N00175 N00157  1.8k TC=0,0 
R_R3         0 N00171  3.3k TC=0,0 
J_J1         N00175 N00406 N00171 JbreakN 
V_V1         N00157 0 12Vdc
R_R4         N00406 N00157  3300k TC=0,0 

**** RESUMING lab5.cir ****
.END

**** 12/15/22 23:46:59 ******* PSpice 17.4.0 (Nov 2018) ******* ID# 0 ********

 ** Profile: "SCHEMATIC1-lab5"  [ D:\MDDT\LAB5\Lab5-PSpiceFiles\SCHEMATIC1\lab5.sim ] 


 ****     Junction FET MODEL PARAMETERS


******************************************************************************




               JbreakN         
               NJF             
         VTO   -2            
        BETA  100.000000E-06 


**** 12/15/22 23:46:59 ******* PSpice 17.4.0 (Nov 2018) ******* ID# 0 ********

 ** Profile: "SCHEMATIC1-lab5"  [ D:\MDDT\LAB5\Lab5-PSpiceFiles\SCHEMATIC1\lab5.sim ] 


 ****     SMALL SIGNAL BIAS SOLUTION       TEMPERATURE =   27.000 DEG C


******************************************************************************



 NODE   VOLTAGE     NODE   VOLTAGE     NODE   VOLTAGE     NODE   VOLTAGE


(N00157)   12.0000 (N00171)    2.0522 (N00175)   10.8840 (N00406)    2.5425 




    VOLTAGE SOURCE CURRENTS
    NAME         CURRENT

    V_V1        -6.230E-04

    TOTAL POWER DISSIPATION   7.48E-03  WATTS



          JOB CONCLUDED

**** 12/15/22 23:46:59 ******* PSpice 17.4.0 (Nov 2018) ******* ID# 0 ********

 ** Profile: "SCHEMATIC1-lab5"  [ D:\MDDT\LAB5\Lab5-PSpiceFiles\SCHEMATIC1\lab5.sim ] 


 ****     JOB STATISTICS SUMMARY


******************************************************************************



  License check-out time            =       36.19
  Total job time (using Solver 1)   =         .22
